
**** 05/01/23 11:08:58 ******** PSpice 9.2.3 (Jan 2002) ******* ID# 251265024 

 ** Profile: "SCHEMATIC1-bias"  [ C:\Users\Teeruth\OneDrive\\Circuit\\project2-schematic1-bias.sim ] 


 ****     CIRCUIT DESCRIPTION


******************************************************************************




** Creating circuit file "project2-schematic1-bias.sim.cir" 
** WARNING: THIS AUTOMATICALLY GENERATED FILE MAY BE OVERWRITTEN BY SUBSEQUENT SIMULATIONS

*Libraries: 
* Local Libraries :
* From [PSPICE NETLIST] section of c:\users\teeruth\orcads\tools\PSpice\PSpice.ini file:
.lib "nom.lib" 

*Analysis directives: 
.TRAN  0 10ms 0 
.PROBE V(alias(*)) I(alias(*)) W(alias(*)) D(alias(*)) NOISE(alias(*)) 
.INC ".\project2-SCHEMATIC1.net" 



**** INCLUDING project2-SCHEMATIC1.net ****
* source PROJECT2
X_U1A         N00345 N00415 N08132 GND A LM358
C_C1         N00684 N00345  0.1u  
D_D2         A N05044 D1N4148 
V_V1         N00684 GND  
+SIN    0 0 0
R_R5         GND N05044  200  
R_Ra         N00684 N08132  6.8k  
V_V2         N08132 GND 5Vdc
R_R1         GND N00415  1k  
R_R2         A N00415  20k  
R_R3         N00345 GND  100k  

**** RESUMING project2-schematic1-bias.sim.cir ****
.END

**** 05/01/23 11:08:58 ******** PSpice 9.2.3 (Jan 2002) ******* ID# 251265024 

 ** Profile: "SCHEMATIC1-bias"  [ C:\Users\Teeruth\OneDrive\\Circuit\\project2-schematic1-bias.sim ] 


 ****     Diode MODEL PARAMETERS


******************************************************************************




               D1N4148         X_U1A.x_lm358.dx 
          IS    2.682000E-09  800.000000E-18 
           N    1.836                        
         ISR    1.565000E-09                 
         IKF     .04417                      
          BV  100                            
         IBV  100.000000E-06                 
          RS     .5664          1            
          TT   11.540000E-09                 
         CJO    4.000000E-12                 
          VJ     .5                          
           M     .3333                       


               X_U1A.x_lm358.dy 
          IS  800.000000E-18 
          RS    1.000000E-03 
         CJO   10.000000E-12 


**** 05/01/23 11:08:58 ******** PSpice 9.2.3 (Jan 2002) ******* ID# 251265024 

 ** Profile: "SCHEMATIC1-bias"  [ C:\Users\Teeruth\OneDrive\\Circuit\\project2-schematic1-bias.sim ] 


 ****     BJT MODEL PARAMETERS


******************************************************************************




               X_U1A.x_lm358.qx 
               PNP             
          IS  800.000000E-18 
          BF  166.7          
          NF    1            
          BR    1            
          NR    1            
          CN    2.2          
           D     .52         


**** 05/01/23 11:08:58 ******** PSpice 9.2.3 (Jan 2002) ******* ID# 251265024 

 ** Profile: "SCHEMATIC1-bias"  [ C:\Users\Teeruth\OneDrive\\Circuit\\project2-schematic1-bias.sim ] 


 ****     Current Controlled Switch MODEL PARAMETERS


******************************************************************************




               X_U1A.x_lm358.sw2 
         RON    1            
        ROFF   10.000000E+06 
         ION    0            
        IOFF   -1.000000E-06 


               X_U1A.x_lm358.sw1 
         RON    1            
        ROFF   10.000000E+06 
         ION   -1.000000E-06 
        IOFF    0            


               X_U1A.x_lm358.sw3 
         RON    1            
        ROFF   10.000000E+06 
         ION   -1.000000E-06 
        IOFF    0            


               X_U1A.x_lm358.sw4 
         RON    1            
        ROFF   10.000000E+06 
         ION    0            
        IOFF   -1.000000E-06 


**** 05/01/23 11:08:58 ******** PSpice 9.2.3 (Jan 2002) ******* ID# 251265024 

 ** Profile: "SCHEMATIC1-bias"  [ C:\Users\Teeruth\OneDrive\\Circuit\\project2-schematic1-bias.sim ] 


 ****     INITIAL TRANSIENT SOLUTION       TEMPERATURE =   27.000 DEG C


******************************************************************************



 NODE   VOLTAGE     NODE   VOLTAGE     NODE   VOLTAGE     NODE   VOLTAGE


(    A)   -1.6761  (  GND)   -1.7880  (N00345)   -1.7834 (N00415)   -1.7826     

(N00684)   -1.7880 (N05044)   -1.7880 (N08132)    3.2120                        

(X_U1A.x_lm358.6)     .0036           (X_U1A.x_lm358.7)   -1.7094               

(X_U1A.x_lm358.8)   -1.7094           (X_U1A.x_lm358.9)    0.0000               

(X_U1A.x_lm358.a) 666.4E-06           (X_U1A.x_lm358.b)   -1.7873               

(X_U1A.x_lm358.10)   -1.1748          (X_U1A.x_lm358.11)   -1.7482              

(X_U1A.x_lm358.12)   -1.7474          (X_U1A.x_lm358.13)   -1.1887              

(X_U1A.x_lm358.14)   -1.1890          (X_U1A.x_lm358.53)    1.7120              

(X_U1A.x_lm358.54)    -.9660          (X_U1A.x_lm358.90)    -.6661              

(X_U1A.x_lm358.91)   40.0000          (X_U1A.x_lm358.92)  -40.0000              

(X_U1A.x_lm358.99)     .7120          




    VOLTAGE SOURCE CURRENTS
    NAME         CURRENT

    V_V1         7.353E-04
    V_V2        -1.301E-03
    X_U1A.x_lm358.vb   3.624E-08
    X_U1A.x_lm358.vc   3.389E-12
    X_U1A.x_lm358.ve  -6.714E-04
    X_U1A.x_lm358.vlim  -6.661E-04
    X_U1A.x_lm358.vlp  -4.067E-11
    X_U1A.x_lm358.vln  -3.934E-11

    TOTAL POWER DISSIPATION   7.06E-03  WATTS



          JOB CONCLUDED

**** 05/01/23 11:08:58 ******** PSpice 9.2.3 (Jan 2002) ******* ID# 251265024 

 ** Profile: "SCHEMATIC1-bias"  [ C:\Users\Teeruth\OneDrive\\Circuit\\project2-schematic1-bias.sim ] 


 ****     JOB STATISTICS SUMMARY


******************************************************************************



  Total job time (using Solver 0)   =         .05
