
**** 04/27/23 11:42:42 ******** PSpice 9.2.3 (Jan 2002) ******* ID# 251265024 

 ** Profile: "SCHEMATIC1-bias"  [ C:\Users\Teeruth\OneDrive\\Circuit\\project1-schematic1-bias.sim ] 


 ****     CIRCUIT DESCRIPTION


******************************************************************************




** Creating circuit file "project1-schematic1-bias.sim.cir" 
** WARNING: THIS AUTOMATICALLY GENERATED FILE MAY BE OVERWRITTEN BY SUBSEQUENT SIMULATIONS

*Libraries: 
* Local Libraries :
* From [PSPICE NETLIST] section of c:\users\teeruth\orcads\tools\PSpice\PSpice.ini file:
.lib "nom.lib" 

*Analysis directives: 
.OP
.PROBE V(alias(*)) I(alias(*)) W(alias(*)) D(alias(*)) NOISE(alias(*)) 
.INC ".\project1-SCHEMATIC1.net" 



**** INCLUDING project1-SCHEMATIC1.net ****
* source PROJECT1
R_R5         N01462 GND  100  
V_V1         N07899 GND 5Vdc
D_D2         N01052 N07899 D1N4148 
X_U1A         N01052 N02859 N07899 GND VOUT LM358
D_D3         VOUT N01462 D1N4148 
R_R7         N02859 N07899  9k  
D_D1         N07899 N01025 D1N4148 
R_R1         GND N01025  100  
R_R2         GND N01052  10k  
R_R4         N02859 GND  1k  

**** RESUMING project1-schematic1-bias.sim.cir ****
.END

**** 04/27/23 11:42:42 ******** PSpice 9.2.3 (Jan 2002) ******* ID# 251265024 

 ** Profile: "SCHEMATIC1-bias"  [ C:\Users\Teeruth\OneDrive\\Circuit\\project1-schematic1-bias.sim ] 


 ****     Diode MODEL PARAMETERS


******************************************************************************




               D1N4148         X_U1A.x_lm358.dx 
          IS    2.682000E-09  800.000000E-18 
           N    1.836                        
         ISR    1.565000E-09                 
         IKF     .04417                      
          BV  100                            
         IBV  100.000000E-06                 
          RS     .5664          1            
          TT   11.540000E-09                 
         CJO    4.000000E-12                 
          VJ     .5                          
           M     .3333                       


               X_U1A.x_lm358.dy 
          IS  800.000000E-18 
          RS    1.000000E-03 
         CJO   10.000000E-12 


**** 04/27/23 11:42:42 ******** PSpice 9.2.3 (Jan 2002) ******* ID# 251265024 

 ** Profile: "SCHEMATIC1-bias"  [ C:\Users\Teeruth\OneDrive\\Circuit\\project1-schematic1-bias.sim ] 


 ****     BJT MODEL PARAMETERS


******************************************************************************




               X_U1A.x_lm358.qx 
               PNP             
          IS  800.000000E-18 
          BF  166.7          
          NF    1            
          BR    1            
          NR    1            
          CN    2.2          
           D     .52         


**** 04/27/23 11:42:42 ******** PSpice 9.2.3 (Jan 2002) ******* ID# 251265024 

 ** Profile: "SCHEMATIC1-bias"  [ C:\Users\Teeruth\OneDrive\\Circuit\\project1-schematic1-bias.sim ] 


 ****     Current Controlled Switch MODEL PARAMETERS


******************************************************************************




               X_U1A.x_lm358.sw2 
         RON    1            
        ROFF   10.000000E+06 
         ION    0            
        IOFF   -1.000000E-06 


               X_U1A.x_lm358.sw1 
         RON    1            
        ROFF   10.000000E+06 
         ION   -1.000000E-06 
        IOFF    0            


               X_U1A.x_lm358.sw3 
         RON    1            
        ROFF   10.000000E+06 
         ION   -1.000000E-06 
        IOFF    0            


               X_U1A.x_lm358.sw4 
         RON    1            
        ROFF   10.000000E+06 
         ION    0            
        IOFF   -1.000000E-06 


**** 04/27/23 11:42:42 ******** PSpice 9.2.3 (Jan 2002) ******* ID# 251265024 

 ** Profile: "SCHEMATIC1-bias"  [ C:\Users\Teeruth\OneDrive\\Circuit\\project1-schematic1-bias.sim ] 


 ****     SMALL SIGNAL BIAS SOLUTION       TEMPERATURE =   27.000 DEG C


******************************************************************************



 NODE   VOLTAGE     NODE   VOLTAGE     NODE   VOLTAGE     NODE   VOLTAGE


(  GND)   -1.7985  ( VOUT)   -1.7928  (N01025)    2.3808 (N01052)   -1.7976     

(N01462)   -1.7985 (N02859)   -1.2985 (N07899)    3.2015                        

(X_U1A.x_lm358.6)    1.5029           (X_U1A.x_lm358.7)   -3.8233               

(X_U1A.x_lm358.8)   -3.8233           (X_U1A.x_lm358.9)    0.0000               

(X_U1A.x_lm358.a)     .0406           (X_U1A.x_lm358.b)   -1.7579               

(X_U1A.x_lm358.10)   -1.1574          (X_U1A.x_lm358.11)   -1.7985              

(X_U1A.x_lm358.12)   -1.7182          (X_U1A.x_lm358.13)   -1.1574              

(X_U1A.x_lm358.14)   -1.1855          (X_U1A.x_lm358.53)    1.7015              

(X_U1A.x_lm358.54)    -.9765          (X_U1A.x_lm358.90)  -40.6100              

(X_U1A.x_lm358.91)   40.0000          (X_U1A.x_lm358.92)  -40.0000              

(X_U1A.x_lm358.99)     .7015          




    VOLTAGE SOURCE CURRENTS
    NAME         CURRENT

    V_V1        -4.286E-02
    X_U1A.x_lm358.vb   1.503E-05
    X_U1A.x_lm358.vc   3.496E-12
    X_U1A.x_lm358.ve  -4.061E-02
    X_U1A.x_lm358.vlim  -4.061E-02
    X_U1A.x_lm358.vlp  -8.061E-11
    X_U1A.x_lm358.vln   1.390E-05

    TOTAL POWER DISSIPATION   2.47E-01  WATTS


**** 04/27/23 11:42:42 ******** PSpice 9.2.3 (Jan 2002) ******* ID# 251265024 

 ** Profile: "SCHEMATIC1-bias"  [ C:\Users\Teeruth\OneDrive\\Circuit\\project1-schematic1-bias.sim ] 


 ****     OPERATING POINT INFORMATION      TEMPERATURE =   27.000 DEG C


******************************************************************************






**** VOLTAGE-CONTROLLED CURRENT SOURCES


NAME         X_U1A.x_lm358.ga        X_U1A.x_lm358.gcm     
I-SOURCE    -1.514E-05              -1.108E-07            


**** VOLTAGE-CONTROLLED VOLTAGE SOURCES


NAME         X_U1A.x_lm358.egnd    
V-SOURCE     7.015E-01            
I-SOURCE     4.061E-02            


**** CURRENT-CONTROLLED CURRENT SOURCES


NAME         X_U1A.x_lm358.fb        X_U1A.x_lm358.fpos    
I-SOURCE     2.216E-01              -4.061E-02            

NAME         X_U1A.x_lm358.fneg    
I-SOURCE     4.061E-02            


**** CURRENT-CONTROLLED VOLTAGE SOURCES


NAME         X_U1A.x_lm358.hlim    
V-SOURCE    -4.061E+01            
I-SOURCE     1.390E-05            


**** DIODES


NAME         D_D2        D_D3        D_D1        X_U1A.x_lm358.dc      
MODEL        D1N4148     D1N4148     D1N4148     X_U1A.x_lm358.dy      
ID          -6.16E-09    5.27E-10    4.18E-02   -3.50E-12             
VD          -5.00E+00    5.73E-03    8.21E-01   -3.49E+00             
REQ          9.48E+09    1.03E+07    1.48E+00    1.00E+12             
CAP          1.80E-12    4.02E-12    7.80E-09    4.72E-12             

NAME         X_U1A.x_lm358.de        X_U1A.x_lm358.dlp     
MODEL        X_U1A.x_lm358.dy        X_U1A.x_lm358.dx      
ID           4.06E-02               -8.06E-11             
VD           8.16E-01               -8.06E+01             
REQ          6.37E-01                1.00E+12             
CAP          1.86E-11                0.00E+00             

NAME         X_U1A.x_lm358.dln       X_U1A.x_lm358.dp      
MODEL        X_U1A.x_lm358.dx        X_U1A.x_lm358.dx      
ID           1.39E-05               -5.00E-12             
VD           6.10E-01               -5.00E+00             
REQ          1.86E+03                1.00E+12             
CAP          0.00E+00                0.00E+00             


**** BIPOLAR JUNCTION TRANSISTORS


NAME         X_U1A.x_lm358.q1        X_U1A.x_lm358.q2      
MODEL        X_U1A.x_lm358.qx        X_U1A.x_lm358.qx      
IB           4.99E-13               -9.08E-08             
IC          -1.33E-12               -1.51E-05             
VBE         -1.41E-01               -6.12E-01             
VBC          5.00E-01               -7.93E-02             
VCE         -6.41E-01               -5.33E-01             
BETADC      -2.66E+00                1.67E+02             
GM           7.24E-12                5.85E-04             
RPI          2.02E+13                2.85E+05             
RX           0.00E+00                0.00E+00             
RO           1.00E+12                6.01E+11             
CBE          0.00E+00                0.00E+00             
CBC          0.00E+00                0.00E+00             
CJS          0.00E+00                0.00E+00             
BETAAC       1.46E+02                1.67E+02             
CBX/CBX2     0.00E+00                0.00E+00             
FT/FT2       1.15E+08                9.32E+15             




**** CURRENT CONTROLLED SWITCHES


NAME         X_U1A.x_lm358.w2        X_U1A.x_lm358.w1      
MODEL        X_U1A.x_lm358.sw2       X_U1A.x_lm358.sw1     
I LOAD       3.16E-07                4.06E-02             
V LOAD       3.16E+00                4.06E-02             
R LOAD       1.00E+07                1.00E+00             
I CTRL      -4.06E-02               -4.06E-02             

NAME         X_U1A.x_lm358.w3        X_U1A.x_lm358.w4      
MODEL        X_U1A.x_lm358.sw3       X_U1A.x_lm358.sw4     
I LOAD      -4.06E-02               -1.76E-07             
V LOAD      -4.06E-02               -1.76E+00             
R LOAD       1.00E+00                1.00E+07             
I CTRL      -4.06E-02               -4.06E-02             

          JOB CONCLUDED

**** 04/27/23 11:42:42 ******** PSpice 9.2.3 (Jan 2002) ******* ID# 251265024 

 ** Profile: "SCHEMATIC1-bias"  [ C:\Users\Teeruth\OneDrive\\Circuit\\project1-schematic1-bias.sim ] 


 ****     JOB STATISTICS SUMMARY


******************************************************************************



  Total job time (using Solver 0)   =         .13
